name,type,start_time,duration
"Test Analyzer","enable",0.0010697,1e-07
"Test Analyzer","disable",0.0023893,1e-07
"Test Analyzer","error",0.0042167,0.0027294
"Test Analyzer","enable",0.0076267,1e-07
"Test Analyzer","disable",0.0102704,1e-07
"Test Analyzer","error",0.012542,0.0026801
"Test Analyzer","enable",0.0178985,1e-07
"Test Analyzer","disable",0.0194342,1e-07
"Test Analyzer","error",0.020693,0.0009318
"Test Analyzer","error",0.0240894,0.0005913
"Test Analyzer","enable",0.0266012,1e-07
"Test Analyzer","disable",0.0279375,1e-07
"Test Analyzer","enable",0.0297479,1e-07
"Test Analyzer","disable",0.0311653,1e-07
"Test Analyzer","error",0.0329424,0.0022205
"Test Analyzer","enable",0.0356195,1e-07
"Test Analyzer","disable",0.0381561,1e-07
"Test Analyzer","enable",0.0403009,1e-07
"Test Analyzer","disable",0.0411884,1e-07
"Test Analyzer","enable",0.0415004,1e-07
"Test Analyzer","disable",0.0422736,1e-07
"Test Analyzer","enable",0.0454319,1e-07
"Test Analyzer","disable",0.0480115,1e-07
"Test Analyzer","enable",0.0505176,1e-07
"Test Analyzer","disable",0.0528484,1e-07
"Test Analyzer","error",0.0550618,0.0020234
"Test Analyzer","error",0.0584972,0.0024686
"Test Analyzer","error",0.0635461,0.0027867
"Test Analyzer","enable",0.0667822,1e-07
"Test Analyzer","disable",0.069193,1e-07
"Test Analyzer","error",0.070051,0.0026262
"Test Analyzer","error",0.0729521,0.0025924
"Test Analyzer","error",0.0768557,0.0018002
"Test Analyzer","enable",0.080272,1e-07
"Test Analyzer","disable",0.0803936,1e-07
"Test Analyzer","error",0.0809839,0.0002175
"Test Analyzer","error",0.0819555,0.0027478
"Test Analyzer","error",0.0874732,0.0007555
"Test Analyzer","enable",0.0897705,1e-07
"Test Analyzer","disable",0.0922286,1e-07
"Test Analyzer","enable",0.0934971,1e-07
"Test Analyzer","disable",0.0966993,1e-07
"Test Analyzer","error",0.0978356,0.0019079
"Test Analyzer","error",0.1011484,0.0011874
"Test Analyzer","enable",0.1043218,1e-07
"Test Analyzer","disable",0.1049333,1e-07
"Test Analyzer","error",0.1072999,0.0030141
"Test Analyzer","error",0.1127385,0.0019394
"Test Analyzer","enable",0.1158225,1e-07
"Test Analyzer","disable",0.1162039,1e-07
"Test Analyzer","enable",0.1168443,1e-07
"Test Analyzer","disable",0.1187712,1e-07
"Test Analyzer","error",0.1198681,0.0013767
"Test Analyzer","enable",0.1230788,1e-07
"Test Analyzer","disable",0.124694,1e-07
"Test Analyzer","error",0.1267804,0.0015565
"Test Analyzer","error",0.1308192,0.0017761
"Test Analyzer","error",0.1350407,0.0026407
"Test Analyzer","enable",0.139099,1e-07
"Test Analyzer","disable",0.1399201,1e-07
"Test Analyzer","enable",0.139996,1e-07
"Test Analyzer","disable",0.1431605,1e-07
"Test Analyzer","enable",0.1449516,1e-07
"Test Analyzer","disable",0.1449539,1e-07
"Test Analyzer","error",0.1480843,0.0022648
"Test Analyzer","enable",0.1513662,1e-07
"Test Analyzer","disable",0.1540493,1e-07
"Test Analyzer","enable",0.1549205,1e-07
"Test Analyzer","disable",0.1551192,1e-07
"Test Analyzer","enable",0.1554935,1e-07
"Test Analyzer","disable",0.1571934,1e-07
"Test Analyzer","error",0.1572227,0.0013676
"Test Analyzer","error",0.1588829,0.0030737
"Test Analyzer","enable",0.1648988,1e-07
"Test Analyzer","disable",0.1654488,1e-07
"Test Analyzer","enable",0.1677398,1e-07
"Test Analyzer","disable",0.168548,1e-07
"Test Analyzer","enable",0.1717774,1e-07
"Test Analyzer","disable",0.1727308,1e-07
"Test Analyzer","enable",0.1737032,1e-07
"Test Analyzer","disable",0.1748653,1e-07
"Test Analyzer","enable",0.1754493,1e-07
"Test Analyzer","disable",0.1762316,1e-07
"Test Analyzer","enable",0.176289,1e-07
"Test Analyzer","disable",0.1764546,1e-07
"Test Analyzer","enable",0.1794987,1e-07
"Test Analyzer","disable",0.1818216,1e-07
"Test Analyzer","enable",0.1825781,1e-07
"Test Analyzer","disable",0.1829961,1e-07
"Test Analyzer","error",0.1837756,0.0012686
"Test Analyzer","error",0.1852603,0.0019344
"Test Analyzer","error",0.1892365,0.002831
"Test Analyzer","error",0.193798,0.0026499
"Test Analyzer","enable",0.1982948,1e-07
"Test Analyzer","disable",0.2007023,1e-07
"Test Analyzer","enable",0.2017153,1e-07
"Test Analyzer","disable",0.2029821,1e-07
"Test Analyzer","enable",0.2037227,1e-07
"Test Analyzer","disable",0.2060884,1e-07
"Test Analyzer","enable",0.2077826,1e-07
"Test Analyzer","disable",0.2100122,1e-07
"Test Analyzer","enable",0.212884,1e-07
"Test Analyzer","disable",0.2154641,1e-07
"Test Analyzer","enable",0.2177979,1e-07
"Test Analyzer","disable",0.2194158,1e-07
"Test Analyzer","enable",0.2205269,1e-07
"Test Analyzer","disable",0.2222456,1e-07
"Test Analyzer","enable",0.223752,1e-07
"Test Analyzer","disable",0.2242803,1e-07
"Test Analyzer","error",0.2275369,0.0018567
"Test Analyzer","enable",0.2294055,1e-07
"Test Analyzer","disable",0.2308738,1e-07
"Test Analyzer","error",0.2326064,0.0016763
"Test Analyzer","enable",0.2355175,1e-07
"Test Analyzer","disable",0.2380435,1e-07
"Test Analyzer","enable",0.2401133,1e-07
"Test Analyzer","disable",0.2415213,1e-07
"Test Analyzer","error",0.2438593,0.0028073
"Test Analyzer","enable",0.2493512,1e-07
"Test Analyzer","disable",0.2519077,1e-07
"Test Analyzer","error",0.2545743,0.0007863
"Test Analyzer","enable",0.2580937,1e-07
"Test Analyzer","disable",0.259291,1e-07
"Test Analyzer","enable",0.2608175,1e-07
"Test Analyzer","disable",0.2616084,1e-07
"Test Analyzer","error",0.263758,0.0008652
"Test Analyzer","enable",0.2648679,1e-07
"Test Analyzer","disable",0.2661405,1e-07
"Test Analyzer","enable",0.2663108,1e-07
"Test Analyzer","disable",0.2676095,1e-07
"Test Analyzer","error",0.2683172,0.0018346
"Test Analyzer","error",0.2720033,0.0014181
"Test Analyzer","enable",0.2761226,1e-07
"Test Analyzer","disable",0.2767656,1e-07
"Test Analyzer","error",0.2788246,0.0017513
"Test Analyzer","error",0.2811985,0.0032599
"Test Analyzer","error",0.2853174,0.0001472
"Test Analyzer","error",0.2869915,0.0030308
"Test Analyzer","enable",0.2905415,1e-07
"Test Analyzer","disable",0.2913857,9.99999999e-08
"Test Analyzer","error",0.294091,0.0008623
"Test Analyzer","enable",0.2957379,1e-07
"Test Analyzer","disable",0.2964196,1e-07
"Test Analyzer","enable",0.2964313,1e-07
"Test Analyzer","disable",0.2970637,1e-07
"Test Analyzer","error",0.2993471,0.0021877
"Test Analyzer","error",0.3016223,0.0010284
"Test Analyzer","enable",0.3040462,1e-07
"Test Analyzer","disable",0.3060539,1e-07
"Test Analyzer","error",0.3073793,0.0020996
"Test Analyzer","error",0.3120789,0.0006391
"Test Analyzer","enable",0.3131984,1e-07
"Test Analyzer","disable",0.3132058,1e-07
"Test Analyzer","error",0.3151539,0.0027188
"Test Analyzer","enable",0.3191271,1e-07
"Test Analyzer","disable",0.3206966,1e-07
"Test Analyzer","error",0.3216458,0.0032154
"Test Analyzer","enable",0.3275545,1e-07
"Test Analyzer","disable",0.3300315,1e-07
"Test Analyzer","enable",0.3327202,1e-07
"Test Analyzer","disable",0.3349797,1e-07
"Test Analyzer","error",0.3354902,0.0032041
"Test Analyzer","error",0.340964,0.0025409
"Test Analyzer","error",0.3440236,0.0028326
"Test Analyzer","enable",0.3473112,1e-07
"Test Analyzer","disable",0.3498293,1e-07
"Test Analyzer","enable",0.3516169,1e-07
"Test Analyzer","disable",0.3529005,1e-07
"Test Analyzer","enable",0.355437,1e-07
"Test Analyzer","disable",0.3554708,1e-07
"Test Analyzer","enable",0.3555338,1e-07
"Test Analyzer","disable",0.357722,1e-07
"Test Analyzer","enable",0.3603469,1e-07
"Test Analyzer","disable",0.3610183,1e-07
"Test Analyzer","error",0.3617608,0.0020321
"Test Analyzer","error",0.3645068,0.0006885
"Test Analyzer","error",0.3678336,0.0002763
"Test Analyzer","error",0.3700249,0.0003088
"Test Analyzer","enable",0.3715971,1e-07
"Test Analyzer","disable",0.3719257,1e-07
"Test Analyzer","enable",0.3741794,1e-07
"Test Analyzer","disable",0.3745394,1e-07
"Test Analyzer","enable",0.3770172,1e-07
"Test Analyzer","disable",0.3773409,1e-07
"Test Analyzer","error",0.379252,0.0010061
"Test Analyzer","error",0.381232,0.0015583
"Test Analyzer","error",0.3837271,0.0003023
"Test Analyzer","enable",0.3851283,1e-07
"Test Analyzer","disable",0.3872752,1e-07
"Test Analyzer","enable",0.3903018,1e-07
"Test Analyzer","disable",0.3911122,1e-07
"Test Analyzer","error",0.3936777,0.0005722
"Test Analyzer","enable",0.3962708,1e-07
"Test Analyzer","disable",0.3983162,1e-07
"Test Analyzer","enable",0.4011144,1e-07
"Test Analyzer","disable",0.4040398,1e-07
"Test Analyzer","error",0.4065491,0.0021182
"Test Analyzer","enable",0.4092212,1e-07
"Test Analyzer","disable",0.4105792,1e-07
"Test Analyzer","enable",0.4114059,1e-07
"Test Analyzer","disable",0.4133342,1e-07
"Test Analyzer","enable",0.4137211,1e-07
"Test Analyzer","disable",0.4138135,1e-07
"Test Analyzer","enable",0.4151374,1e-07
"Test Analyzer","disable",0.4176408,1e-07
"Test Analyzer","enable",0.4189154,1e-07
"Test Analyzer","disable",0.4212996,1e-07
"Test Analyzer","error",0.4218334,0.0032077
"Test Analyzer","enable",0.4277853,1e-07
"Test Analyzer","disable",0.4295472,1e-07
"Test Analyzer","enable",0.4304275,1e-07
"Test Analyzer","disable",0.4329882,1e-07
"Test Analyzer","enable",0.4332467,1e-07
"Test Analyzer","disable",0.4333919,1e-07
"Test Analyzer","enable",0.4355599,1e-07
"Test Analyzer","disable",0.438642,1e-07
"Test Analyzer","enable",0.4389002,1e-07
"Test Analyzer","disable",0.4402121,1e-07
"Test Analyzer","enable",0.4417193,1e-07
"Test Analyzer","disable",0.4446899,1e-07
"Test Analyzer","error",0.4476632,0.0001502
"Test Analyzer","error",0.4487182,0.0015819
"Test Analyzer","enable",0.4523846,9.99999999e-08
"Test Analyzer","disable",0.4530434,1e-07
"Test Analyzer","error",0.454938,0.002713
"Test Analyzer","error",0.4605217,0.0031096
"Test Analyzer","enable",0.4642926,1e-07
"Test Analyzer","disable",0.4656153,1e-07
"Test Analyzer","enable",0.4659856,1e-07
"Test Analyzer","disable",0.467576,1e-07
"Test Analyzer","error",0.4689973,0.0017226
"Test Analyzer","enable",0.4735528,1e-07
"Test Analyzer","disable",0.47609,1e-07
"Test Analyzer","enable",0.4762515,1e-07
"Test Analyzer","disable",0.4778831,1e-07
"Test Analyzer","enable",0.4780207,1e-07
"Test Analyzer","disable",0.4791144,1e-07
"Test Analyzer","error",0.4799221,0.0013695
"Test Analyzer","enable",0.4840385,1e-07
"Test Analyzer","disable",0.4872411,1e-07
"Test Analyzer","enable",0.4895785,1e-07
"Test Analyzer","disable",0.4925725,1e-07
"Test Analyzer","enable",0.4935618,1e-07
"Test Analyzer","disable",0.4954998,1e-07
"Test Analyzer","enable",0.4986849,1e-07
"Test Analyzer","disable",0.5012958,1e-07
"Test Analyzer","error",0.5033518,0.0029743
"Test Analyzer","error",0.5081218,0.0023133
"Test Analyzer","error",0.5115616,0.0028927
"Test Analyzer","error",0.5152823,0.0015143
"Test Analyzer","error",0.5180398,0.0020765
"Test Analyzer","enable",0.5204729,1e-07
"Test Analyzer","disable",0.5218609,1e-07
"Test Analyzer","error",0.5240761,0.0025188
"Test Analyzer","enable",0.5275452,1e-07
"Test Analyzer","disable",0.5306584,1e-07
"Test Analyzer","enable",0.5324516,1e-07
"Test Analyzer","disable",0.5343684,1e-07
"Test Analyzer","enable",0.5373899,1e-07
"Test Analyzer","disable",0.5381532,1e-07
"Test Analyzer","error",0.541113,0.0005491
"Test Analyzer","error",0.5436086,0.0005616
"Test Analyzer","enable",0.5465354,1e-07
"Test Analyzer","disable",0.5491841,1e-07
"Test Analyzer","error",0.5496302,0.0030094
"Test Analyzer","error",0.5556016,0.0026496
"Test Analyzer","enable",0.5604131,1e-07
"Test Analyzer","disable",0.5609649,1e-07
"Test Analyzer","error",0.5626186,0.0025418
"Test Analyzer","enable",0.5673824,1e-07
"Test Analyzer","disable",0.5698228,1e-07
"Test Analyzer","enable",0.5723826,1e-07
"Test Analyzer","disable",0.5741659,1e-07
"Test Analyzer","error",0.5756286,0.0005066
"Test Analyzer","enable",0.5766343,1e-07
"Test Analyzer","disable",0.5793963,1e-07
"Test Analyzer","enable",0.5809639,1e-07
"Test Analyzer","disable",0.5839817,1e-07
"Test Analyzer","enable",0.5867851,1e-07
"Test Analyzer","disable",0.5872683,1e-07
"Test Analyzer","error",0.5902322,0.0004737
"Test Analyzer","enable",0.5923148,1e-07
"Test Analyzer","disable",0.5949929,9.99999999e-08
"Test Analyzer","enable",0.5978661,1e-07
"Test Analyzer","disable",0.5984723,1e-07
"Test Analyzer","error",0.5995592,0.0008137
"Test Analyzer","enable",0.6020189,1e-07
"Test Analyzer","disable",0.6037881,9.99999999e-08
"Test Analyzer","enable",0.6064195,1e-07
"Test Analyzer","disable",0.6072929,1e-07
"Test Analyzer","enable",0.6101614,1e-07
"Test Analyzer","disable",0.6109581,1e-07
"Test Analyzer","enable",0.6127422,1e-07
"Test Analyzer","disable",0.6132336,1e-07
"Test Analyzer","enable",0.6143186,1e-07
"Test Analyzer","disable",0.6145682,9.99999999e-08
"Test Analyzer","error",0.6158458,0.0019585
"Test Analyzer","enable",0.6206036,1e-07
"Test Analyzer","disable",0.6234358,1e-07
"Test Analyzer","error",0.6248074,0.0003665
"Test Analyzer","enable",0.6274025,1e-07
"Test Analyzer","disable",0.6290106,1e-07
"Test Analyzer","error",0.6292052,0.0029351
"Test Analyzer","error",0.632805,0.0026644
"Test Analyzer","enable",0.6364951,1e-07
"Test Analyzer","disable",0.6381002,1e-07
"Test Analyzer","error",0.6397687,0.002363
"Test Analyzer","enable",0.6448446,1e-07
"Test Analyzer","disable",0.6451009,1e-07
"Test Analyzer","error",0.647874,0.0018528
"Test Analyzer","error",0.6511881,0.0028039
"Test Analyzer","error",0.654323,0.0028502
"Test Analyzer","error",0.6582772,9.43e-05
"Test Analyzer","enable",0.660114,1e-07
"Test Analyzer","disable",0.6610552,1e-07
"Test Analyzer","error",0.6628718,0.0009821
"Test Analyzer","enable",0.6646085,1e-07
"Test Analyzer","disable",0.6663117,1e-07
"Test Analyzer","error",0.6692732,0.0032455
"Test Analyzer","error",0.6735475,0.000181
"Test Analyzer","error",0.6737467,0.0015273
"Test Analyzer","enable",0.6764297,1e-07
"Test Analyzer","disable",0.6764652,1e-07
"Test Analyzer","error",0.6781929,0.0004085
"Test Analyzer","error",0.6812796,0.0012291
"Test Analyzer","enable",0.6855499,9.99999999e-08
"Test Analyzer","disable",0.6879526,9.99999999e-08
"Test Analyzer","enable",0.6902537,1e-07
"Test Analyzer","disable",0.6922876,1e-07
"Test Analyzer","error",0.6952677,0.0009135
"Test Analyzer","error",0.6987253,0.0008767
"Test Analyzer","enable",0.702319,9.99999999e-08
"Test Analyzer","disable",0.7026073,1e-07
"Test Analyzer","enable",0.7049317,9.99999999e-08
"Test Analyzer","disable",0.7060162,1e-07
"Test Analyzer","error",0.7069258,0.0005907
"Test Analyzer","error",0.7077562,0.0030063
"Test Analyzer","error",0.7132167,0.0012734
"Test Analyzer","error",0.7163418,0.0028696
"Test Analyzer","enable",0.7224369,1e-07
"Test Analyzer","disable",0.7237003,1e-07
"Test Analyzer","enable",0.7237919,1e-07
"Test Analyzer","disable",0.7242907,1e-07
"Test Analyzer","error",0.7266861,0.0031043
"Test Analyzer","enable",0.7328762,1e-07
"Test Analyzer","disable",0.7359593,1e-07
"Test Analyzer","enable",0.7367246,1e-07
"Test Analyzer","disable",0.7378859,1e-07
"Test Analyzer","enable",0.7405922,1e-07
"Test Analyzer","disable",0.7420333,9.99999999e-08
"Test Analyzer","enable",0.7444827,1e-07
"Test Analyzer","disable",0.7459504,9.99999999e-08
"Test Analyzer","enable",0.747411,1e-07
"Test Analyzer","disable",0.7500131,1e-07
"Test Analyzer","enable",0.7532016,1e-07
"Test Analyzer","disable",0.7555378,1e-07
"Test Analyzer","error",0.7557005,0.0011551
"Test Analyzer","error",0.7601055,0.0027823
"Test Analyzer","enable",0.7650618,9.99999999e-08
"Test Analyzer","disable",0.7663458,1e-07
"Test Analyzer","error",0.7668539,0.0004458
"Test Analyzer","enable",0.7679553,1e-07
"Test Analyzer","disable",0.7710454,1e-07
"Test Analyzer","error",0.7723715,0.0014795
"Test Analyzer","enable",0.7769682,1e-07
"Test Analyzer","disable",0.778036,1e-07
"Test Analyzer","error",0.7802911,0.002986
"Test Analyzer","enable",0.7838949,1e-07
"Test Analyzer","disable",0.7861345,1e-07
"Test Analyzer","enable",0.7867964,1e-07
"Test Analyzer","disable",0.7876162,1e-07
"Test Analyzer","error",0.7885531,0.000443
"Test Analyzer","enable",0.7912076,1e-07
"Test Analyzer","disable",0.7915185,1e-07
"Test Analyzer","enable",0.7936379,9.99999999e-08
"Test Analyzer","disable",0.7955892,1e-07
"Test Analyzer","error",0.7963383,0.0024971
"Test Analyzer","error",0.7990265,0.0013004
"Test Analyzer","enable",0.8014503,1e-07
"Test Analyzer","disable",0.8018304,1e-07
"Test Analyzer","enable",0.8048712,9.99999999e-08
"Test Analyzer","disable",0.8064914,1e-07
"Test Analyzer","enable",0.807229,1e-07
"Test Analyzer","disable",0.8103743,1e-07
"Test Analyzer","enable",0.8114759,1e-07
"Test Analyzer","disable",0.8121216,1e-07
"Test Analyzer","error",0.8129785,0.001108
"Test Analyzer","error",0.8141992,0.0021559
"Test Analyzer","error",0.8168687,0.002114
"Test Analyzer","error",0.8210625,8.46e-05
"Test Analyzer","enable",0.8238508,1e-07
"Test Analyzer","disable",0.8255137,1e-07
"Test Analyzer","enable",0.826898,1e-07
"Test Analyzer","disable",0.8273472,1e-07
"Test Analyzer","enable",0.8275425,1e-07
"Test Analyzer","disable",0.8282568,1e-07
"Test Analyzer","enable",0.8283576,1e-07
"Test Analyzer","disable",0.8284592,1e-07
"Test Analyzer","enable",0.8296536,1e-07
"Test Analyzer","disable",0.8302337,1e-07
"Test Analyzer","error",0.832297,0.0030046
"Test Analyzer","enable",0.836591,1e-07
"Test Analyzer","disable",0.8386786,1e-07
"Test Analyzer","error",0.8388629,0.0015497
"Test Analyzer","error",0.8419835,0.0011366
"Test Analyzer","enable",0.8433142,1e-07
"Test Analyzer","disable",0.8450478,9.99999999e-08
"Test Analyzer","enable",0.8476977,9.99999999e-08
"Test Analyzer","disable",0.8501734,1e-07
"Test Analyzer","enable",0.8530694,1e-07
"Test Analyzer","disable",0.855096,1e-07
"Test Analyzer","enable",0.8576624,1e-07
"Test Analyzer","disable",0.8588127,1e-07
"Test Analyzer","enable",0.860959,9.99999999e-08
"Test Analyzer","disable",0.8627771,1e-07
"Test Analyzer","error",0.8638141,0.0025113
"Test Analyzer","enable",0.8667467,1e-07
"Test Analyzer","disable",0.8688217,9.99999999e-08
"Test Analyzer","enable",0.8690494,1e-07
"Test Analyzer","disable",0.8721466,1e-07
"Test Analyzer","enable",0.8734547,1e-07
"Test Analyzer","disable",0.8752567,1e-07
"Test Analyzer","enable",0.8785227,1e-07
"Test Analyzer","disable",0.8816692,1e-07
"Test Analyzer","enable",0.8829781,1e-07
"Test Analyzer","disable",0.8844595,1e-07
"Test Analyzer","error",0.8847058,0.0005612
"Test Analyzer","error",0.8861039,0.0005314
"Test Analyzer","enable",0.8895586,1e-07
"Test Analyzer","disable",0.8925143,1e-07
"Test Analyzer","error",0.8956762,0.0023595
"Test Analyzer","enable",0.8982144,1e-07
"Test Analyzer","disable",0.9000159,1e-07
"Test Analyzer","enable",0.9008743,9.99999999e-08
"Test Analyzer","disable",0.9033013,1e-07
"Test Analyzer","error",0.9035413,0.0029766
"Test Analyzer","error",0.9069724,0.0022733
"Test Analyzer","enable",0.9111085,1e-07
"Test Analyzer","disable",0.9120006,1e-07
"Test Analyzer","enable",0.9126104,1e-07
"Test Analyzer","disable",0.9139493,1e-07
"Test Analyzer","error",0.914506,0.0009345
"Test Analyzer","enable",0.9162173,1e-07
"Test Analyzer","disable",0.9178484,1e-07
"Test Analyzer","enable",0.9182196,1e-07
"Test Analyzer","disable",0.9195617,9.99999999e-08
"Test Analyzer","enable",0.9214412,1e-07
"Test Analyzer","disable",0.9241357,9.99999999e-08
"Test Analyzer","enable",0.9242002,1e-07
"Test Analyzer","disable",0.926223,9.99999999e-08
"Test Analyzer","error",0.926269,0.0031991
"Test Analyzer","error",0.9310731,0.0018087
"Test Analyzer","enable",0.932919,9.99999999e-08
"Test Analyzer","disable",0.9338531,1e-07
"Test Analyzer","enable",0.9361671,1e-07
"Test Analyzer","disable",0.9375485,1e-07
"Test Analyzer","enable",0.9377124,1e-07
"Test Analyzer","disable",0.9382859,1e-07
"Test Analyzer","enable",0.9407556,9.99999999e-08
"Test Analyzer","disable",0.9414912,1e-07
"Test Analyzer","error",0.9420288,0.0017928
"Test Analyzer","enable",0.9457977,1e-07
"Test Analyzer","disable",0.9460545,9.99999999e-08
"Test Analyzer","enable",0.9479016,1e-07
"Test Analyzer","disable",0.9494008,1e-07
"Test Analyzer","error",0.9509474,0.0027766
"Test Analyzer","error",0.9554702,0.0028836
"Test Analyzer","error",0.9605969,0.0001478
"Test Analyzer","error",0.9637525,0.0011141
